! Created 4/24/2012.
!
! AD936X RX1A or RX2A RX Input 2-Port "S" Matrix.
!
! This LNA may be utilized for the "full" 70Mhz to 6Ghz Frequency Range.
!
! Device Revision : R2
!
! LNA Gain = Maximum.
!
! Port 1 : RX1A or RX2A : P, M1 or A2.
!
! Port 2 : RX1A or RX2A : N, M2 or A1.
!
! Reference-Plane : Ball Pad Edge.
!
! Rogers 4003 : Height=8 mil.
!
! Ball Pad Diameter = 355.6um.
!
! Ball Pad Pitch = 800um.
!
! This "S" Matrix includes the parasitics associated with the Ball Pads.
!
! Property of ADI. Distribution prohibited without the written consent of Analog Devices.
!
# hz S ma R 50
! 2 Port Network Data from SP1.SP block
! freq  magS11  angS11  magS21  angS21  magS12  angS12  magS22  angS22  
!     
                70000000       0.401043503098596        -5.18978905751252       0.0191145496003112         15.5465658703948       0.0189409335932247         14.9918759484609        0.400121015501923        -5.14892366336264
                71000000       0.401280637191473        -5.29763717608436       0.0193512749033612         14.3491594374139       0.0191923063021768         13.7561827740729        0.400392464988104         -5.2567907870777
                72000000       0.401517757396397        -5.40548728155978       0.0195879960393194         13.1517379290942       0.0194436756532403         12.5204506622999        0.400663890804746        -5.36466243355363
                73000000       0.401754863689967        -5.51333937047045        0.019824712901798         11.9543018859725       0.0196950414873205         11.2846811044195         0.40093529290693         -5.4725385937606
                74000000       0.401991956048785        -5.62119343935653       0.0200614253844143         10.7568518230871       0.0199464036453493         10.0488755166283        0.401206671249743        -5.58041925869449
                75000000       0.402229034449453        -5.72904948476667       0.0202981333807905         9.55938823146359       0.0201977619682823         8.81303524471416        0.401478025788286        -5.68830441937668
                76000000       0.402466098868576        -5.83690750325794       0.0205348367845531         8.36191157950015       0.0204491162970986         7.57716156838247        0.401749356477665        -5.79619406685411
                77000000       0.402703149282762        -5.94476749139585       0.0207715354893336         7.16442231425678       0.0207004664727987          6.3412557052686        0.402020663272997        -5.90408819219907
                78000000       0.402940185668621         -6.0526294457543       0.0210082293887676         5.96692086265778       0.0209518123364038         5.10531881466078         0.40229194612941        -6.01198678650917
                79000000       0.403177208002762        -6.16049336291556        0.021244918376495         4.76940763261385       0.0212031537289549         3.86935200095838        0.402563205002041        -6.11988984090725
                80000000       0.403414216261802        -6.26835923947025       0.0214816023461597         3.57188301406988       0.0214544904915111         2.63335631688715        0.402834439846035         -6.2277973465413
                81000000       0.403651210422356        -6.37622707201732       0.0217182811914097         2.37434737998425       0.0217058224651494           1.397332766491        0.403105650616549        -6.33570929458434
                82000000       0.403888190461041          -6.484096857164        0.021954954805897         1.17680108724475       0.0219571494909634         0.16128230791834        0.403376837268746         -6.4436256762344
                83000000       0.404125156354478        -6.59196859152582       0.0221916230832773      -0.0207555224740598       0.0222084714100629        -1.07479414398078        0.403647999757801        -6.55154648271435
                84000000        0.40436210807929        -6.69984227172653         0.02242828591721        -1.21832212190796       0.0224597880635727        -2.31089571523197        0.403919138038898        -6.65947170527189
                85000000       0.404599045612101        -6.80771789439812       0.0226649432013583        -2.41589839745033       0.0227110992926324         -3.5470215704746         0.40419025206723        -6.76740133517946
                86000000       0.404835968929538        -6.91559545618081       0.0229015948293889         -3.6134840484462       0.0229624049383954        -4.78317091084851        0.404461341797999        -6.87533536373409
                87000000       0.405072878008231        -7.02347495372293       0.0231382406949721        -4.81107878652962       0.0232137048420286        -6.01934297201799        0.404732407186417         -6.9832737822574
                88000000       0.405309772824808        -7.13135638368103       0.0233748806917816        -6.00868233500126       0.0234649988447115         -7.2555370223227        0.405003448187706        -7.09121658209546
                89000000       0.405546653355906        -7.23923974271975       0.0236115147134946        -7.20629442824353       0.0237162867876363         -8.4917523610463        0.405274464757094        -7.19916375461874
                90000000       0.405783519578158        -7.34712502751185       0.0238481426537917        -8.40391481117048       0.0239675685120067        -9.72798831679383        0.405545456849824        -7.30711529122203
                91000000       0.406020371468202        -7.45501223473817       0.0240847644063568        -9.60154323871013       0.0242188438590381        -10.9642442459704        0.405816424421143        -7.41507118332429
                92000000       0.406257209002678        -7.56290136108761       0.0243213798648772        -10.7991794753172       0.0244701126699569        -12.2005195313532        0.406087367426311         -7.5230314223687
                93000000       0.406494032158228        -7.67079240325708       0.0245579889230433        -11.9968232945137           0.024721374786        -13.4368135807513        0.406358285820593        -7.63099599982245
                94000000       0.406730840911495        -7.77868535795156        0.024794591474549        -13.1944744784562       0.0249726300484149        -14.6731258257453        0.406629179559268        -7.73896490717674
                95000000       0.406967635239125        -7.88658022188396       0.0250311874130912        -14.3921328175274       0.0252238782984589        -15.9094557205039         0.40690004859762        -7.84693813594665
                96000000       0.407204415117768        -7.99447699177518       0.0252677766323704        -15.5897981099507       0.0254751193773992        -17.1458027406687        0.407170892890947        -7.95491567767109
                97000000       0.407441180524072        -8.10237566435407       0.0255043590260897        -16.7874701614266       0.0257263531265122        -18.3821663823061        0.407441712394551        -8.06289752391271
                98000000       0.407677931434692        -8.21027623635735       0.0257409344879559        -17.9851487847884       0.0259775793870837        -19.6185461609186        0.407712507063747        -8.17088366625786
                99000000        0.40791466782628         -8.3181787045297       0.0259775029116788        -19.1828337996774       0.0262287980004083        -20.8549416105139        0.407983276853857        -8.27887409631641
               100000000       0.408151389675494        -8.42608306562364       0.0262140641909714        -20.3805250322357       0.0264800088077897        -22.0913522827268        0.408254021720213         -8.3868688057218
               101000000       0.408002807162375        -8.49990686219445       0.0261119204169354        -20.8201858694361       0.0263746622623713        -22.5435794570366        0.408108772913924         -8.4619653420546
               102000000       0.407854222742638        -8.57373116077875       0.0260097731291187        -21.2598308437149       0.0262693119978643        -22.9957906790884        0.407963522624269        -8.53706206162153
               103000000        0.40770563641912        -8.64755596193648       0.0259076223816216        -21.6994597699339        0.026163958066968        -23.4479857586231        0.407818270853251        -8.61215896462691
               104000000       0.407557048194657        -8.72138126622827       0.0258054682285516        -22.1390724599602       0.0260586005223883        -23.9001645022435         0.40767301760287        -8.68725605127534
               105000000       0.407408458072087         -8.7952070742156       0.0257033107240228        -22.5786687226068       0.0259532394168385        -24.3523267133515        0.407527762875128        -8.76235332177167
               106000000       0.407259866054244        -8.86903338646077       0.0256011499221566         -23.018248363572       0.0258478748030394        -24.8044721920822        0.407382506672026        -8.83745077632105
               107000000       0.407111272143966        -8.94286020352685       0.0254989858770812        -23.4578111853769       0.0257425067337188        -25.2566007352375        0.407237248995563        -8.91254841512891
               108000000       0.406962676344089        -9.01668752597771        0.025396818642932        -23.8973569873014       0.0256371352616122        -25.7087121362174        0.407091989847744        -8.98764623840093
               109000000       0.406814078657451        -9.09051535437802        0.025294648273852        -24.3368855653192       0.0255317604394626        -26.1608061849503        0.406946729230567         -9.0627442463431
               110000000       0.406665479086887         -9.1643436892933       0.0251924748239911        -24.7763967120308       0.0254263823200208        -26.6128826678207        0.406801467146034        -9.13784243916169
               111000000       0.406516877635236        -9.23817253128985       0.0250902983475073        -25.2158902165947       0.0253210009560453         -27.064941367596        0.406656203596148        -9.21294081706318
               112000000       0.406368274305333        -9.31200188093477       0.0249881188985657        -25.6553658646576       0.0252156164003027        -27.5169820633503        0.406510938582909        -9.28803938025443
               113000000       0.406219669100018        -9.38583173879596       0.0248859365313394        -26.0948234382818       0.0251102287055676        -27.9690045303879        0.406365672108318        -9.36313812894251
               114000000       0.406071062022126        -9.45966210544221       0.0247837513000094         -26.534262715872       0.0250048379246228        -28.4210085401631        0.406220404174377        -9.43823706333482
               115000000       0.405922453074495        -9.53349298144298       0.0246815632587645        -26.9736834720996       0.0248994441102595        -28.8729938601995        0.406075134783086        -9.51333618363903
               116000000       0.405773842259963        -9.60732436736868       0.0245793724618017         -27.413085477825       0.0247940473152773        -29.3249602540061        0.405929863936448        -9.58843549006303
               117000000       0.405625229581368        -9.68115626379047       0.0244771789633262        -27.8524685000184       0.0246886475924845        -29.7769074809921        0.405784591636464        -9.66353498281508
               118000000       0.405476615041546        -9.75498867128031       0.0243749828175518        -28.2918323016785       0.0245832449946981        -30.2288352963786        0.405639317885135        -9.73863466210362
               119000000       0.405327998643338        -9.82882159041107       0.0242727840787005         -28.731176641749        0.024477839574744        -30.6807434511094        0.405494042684462        -9.81373452813753
               120000000       0.405179380389579        -9.90265502175636        0.024170582801003        -29.1705012750326       0.0243724313854575        -31.1326316917577        0.405348766036447        -9.88883458112588
               121000000       0.405030760283108        -9.97648896589063       0.0240683790386991        -29.6098059521041       0.0242670204796827         -31.584499760432        0.405203487943092        -9.96393482127794
               122000000       0.404882138326764        -10.0503234233891       0.0239661728460373        -30.0490904192197       0.0241616069102733        -32.0363473946785        0.405058208406397        -10.0390352488034
               123000000       0.404733514523384         -10.124158394828       0.0238639642772754        -30.4883544182252       0.0240561907300927        -32.4881743273815        0.404912927428366        -10.1141358639122
               124000000       0.404584888875809        -10.1979938807842       0.0237617533866802        -30.9275976864609       0.0239507719920137        -32.9399802866609        0.404767645010998        -10.1892366668145
               125000000       0.404436261386873        -10.2718298818354       0.0236595402285283        -31.3668199566652       0.0238453507489196        -33.3917649957667        0.404622361156296        -10.2643376577209
               126000000       0.404287632059419        -10.3456663985603       0.0235573248571058        -31.8060209568741       0.0237399270537033         -33.843528172972         0.40447707586626        -10.3394388368421
               127000000       0.404139000896284        -10.4195034315382       0.0234551073267085        -32.2452004103197       0.0236345009592683        -34.2952695314611        0.404331789142894        -10.4145402043891
               128000000       0.403990367900307        -10.4933409813495       0.0233528876916423        -32.6843580353248       0.0235290725185285        -34.7469887792164        0.404186500988197        -10.4896417605735
               129000000       0.403841733074327        -10.5671790485751       0.0232506660062234        -33.1234935451956       0.0234236417844087         -35.198685618901        0.404041211404173        -10.5647435056067
               130000000       0.403693096421183        -10.6410176337971       0.0231484423247781        -33.5626066481109       0.0233182088098444        -35.6503597477392        0.403895920392822        -10.6398454397008
               131000000       0.403544457943714        -10.7148567375981       0.0230462167016436        -34.0016970470091       0.0232127736477825         -36.102010857393        0.403750627956146         -10.714947563068
               132000000       0.403395817644761        -10.7886963605618       0.0229439891911676        -34.4407644394712       0.0231073363511811        -36.5536386338353        0.403605334096147        -10.7900498759207
               133000000        0.40324717552716        -10.8625365032727       0.0228417598477092        -34.8798085176013       0.0230018969730101        -37.0052427572198        0.403460038814826        -10.8651523784718
               134000000       0.403098531593754         -10.936377166316       0.0227395287256382        -35.3188289679045        0.022896455566251        -37.4568229017474        0.403314742114186        -10.9402550709345
               135000000       0.402949885847381        -11.0102183502777       0.0226372958793363        -35.7578254711596       0.0227910121838976        -37.9083787355286        0.403169443996228        -11.0153579535221
               136000000        0.40280123829088         -11.084060055745       0.0225350613631967        -36.1967977022906       0.0226855668789561        -38.3599099204423        0.403024144462954        -11.0904610264482
               137000000       0.402652588927093        -11.1579022833056       0.0224328252316246         -36.635745330233       0.0225801197044452        -38.8114161119908        0.402878843516365        -11.1655642899268
               138000000       0.402503937758859        -11.2317450335482       0.0223305875390375        -37.0746680177973       0.0224746707133965        -39.2628969591497        0.402733541158464        -11.2406677441723
               139000000       0.402355284789017        -11.3055883070622       0.0222283483398651        -37.5135654215286       0.0223692199588549        -39.7143521042158        0.402588237391252        -11.3157713893992
               140000000       0.402206630020409        -11.3794321044381         0.02212610768855         -37.952437191562       0.0222637674938786        -40.1657811826477         0.40244293221673        -11.3908752258223
               141000000       0.402057973455874        -11.4532764262671       0.0220238656395478        -38.3912829714744       0.0221583133715398        -40.6171838229047        0.402297625636902        -11.4659792536568
               142000000       0.401909315098253        -11.5271212731413       0.0219216222473272        -38.8301023981318       0.0220528576449245        -41.0685596462788        0.402152317653769        -11.5410834731182
               143000000       0.401760654950386        -11.6009666456536       0.0218193775663707        -39.2688951015326       0.0219474003671332        -41.5199082667236        0.402007008269333        -11.6161878844221
               144000000       0.401611993015114        -11.6748125443977       0.0217171316511745        -39.7076607046466       0.0218419415912812        -41.9712292906771        0.401861697485595        -11.6912924877847
               145000000       0.401463329295279        -11.7486589699683        0.021614884556249        -40.1463988232487       0.0217364813704987        -42.4225223168801        0.401716385304557        -11.7663972834223
               146000000        0.40131466379372         -11.822505922961       0.0215126363361194        -40.5851090657489       0.0216310197579315        -42.8737869361886        0.401571071728223        -11.8415022715514
               147000000       0.401165996513279         -11.896353403972       0.0214103870453252        -41.0237910330166       0.0215255568067409        -43.3250227313814        0.401425756758592         -11.916607452389
               148000000       0.401017327456796        -11.9702014135987       0.0213081367384215        -41.4624443182003       0.0214200925701045        -43.7762292769616        0.401280440397669        -11.9917128261525
               149000000       0.400868656627114        -12.0440499524391       0.0212058854699789        -41.9010685065423       0.0213146271012165        -44.2274061389522        0.401135122647454        -12.0668183930591
               150000000       0.400719984027074        -12.1178990210922       0.0211036332945835        -42.3396631751871       0.0212091604532877        -44.6785528746861        0.400989803509949         -12.141924153327
               151000000       0.400571309659516        -12.1917486201579       0.0210013802668382        -42.7782278929855       0.0211036926795465        -45.1296690325888        0.400844482987158        -12.2170301071742
               152000000       0.400422633527282        -12.2655987502368       0.0208991264413623        -43.2167622202916        0.020998223833239         -45.580754151956        0.400699161081081        -12.2921362548189
               153000000       0.400273955633214        -12.3394494119305       0.0207968718727921        -43.6552657087553       0.0208927539676293        -46.0318077627233        0.400553837793721        -12.3672425964801
               154000000       0.400125275980155        -12.4133006058414       0.0206946166157813        -44.0937379011073       0.0207872831360002        -46.4828293852293        0.400408513127079        -12.4423491323768
