! Port 1 of VNA is connected to Unbalance Pin (1) of device
! Port 2 of VNA is connected to Balance Pin (4) of device
! Port 3 of VNA is connected to Balance Pin (3) of device
# hz S db R 50
        500000000     -0.494840566        -106.33952       -15.0146304       -70.7235123       -16.0683496        100.239447
                     -14.9994597       -70.8004866       -1.98346219        142.234358        -35.953976        147.832803
                     -16.0530203        100.155331       -35.9479758        147.799093      -0.504182181        135.584738

        512500000     -0.534887069       -108.870846       -14.5778921       -72.7976005       -15.6949702        98.4214815
                      -14.578361       -72.8931115       -1.93007712        140.794369        -35.073219        149.477088
                     -15.6897713        98.2821867       -35.0874439        149.549458      -0.529317663        134.480131

        525000000     -0.579948443       -111.478908        -14.176868       -75.0689684       -15.3272968        96.4635203
                     -14.1711876       -75.0713074        -1.8597516          139.2738       -34.1995234        150.782793
                     -15.3421482        96.4049878       -34.2326587        150.696691      -0.535014197        133.340466

        537500000     -0.617213588       -114.099597       -13.7887749       -77.3192339       -14.9769315         94.620565
                     -13.7815697       -77.3028372       -1.80132947        137.659651       -33.3695907         151.59512
                      -14.989198        94.5079739       -33.3787859        151.466951      -0.559473824         132.25915

        550000000     -0.659740554       -116.686338        -13.421489       -79.4832029       -14.6450897        92.7423046
                     -13.4223109       -79.6149314       -1.75235053        136.041956       -32.5709357         151.97653
                     -14.6381241        92.6734536       -32.5788043        152.045171      -0.568665727        131.190134

        562500000     -0.696933305         -119.2685       -13.0718145       -81.7900321        -14.315202        90.9968192
                     -13.0657368       -81.8091037        -1.7058012        134.355043        -31.813172        152.285259
                     -14.3129125        90.8024071        -31.799951         152.08845      -0.589735228        130.189951

        575000000     -0.753919391        -121.88443        -12.732333        -83.988014       -14.0125986        88.9991807
                     -12.7227861       -83.9695636       -1.65318057         132.82723         -31.05727        152.156017
                     -14.0004188        88.9734746       -31.0529729        152.095166      -0.621133746        129.071603

        587500000     -0.807154659       -124.353736       -12.4110654       -86.1346634       -13.6927483        87.3280931
                      -12.402163       -86.2174013       -1.62987259        131.153209       -30.3559759        151.935392
                     -13.7165144        87.1662449       -30.3632257        151.818698      -0.652660675         127.97083

        600000000     -0.858213725       -126.880359       -12.0779838       -88.2440281       -13.4040376        85.3615392
                     -12.0848507       -88.3300608       -1.58702072        129.622493       -29.6606564        151.560798
                     -13.3962073        85.2774483       -29.6478863        151.497919      -0.660794962         126.90003

        612500000     -0.913564605        -129.37956       -11.7823648       -90.4498671       -13.1002255        83.4594043
                     -11.7754419       -90.4911807       -1.55024427        127.998449       -28.9834282        150.935005
                     -13.1041052        83.4640317       -28.9868971        150.936054      -0.675914887        125.744552

        625000000     -0.951772945       -131.795351       -11.4896677        -92.590121       -12.8361445        81.6800324
                     -11.4800348       -92.6107995       -1.52645776        126.390152       -28.3602406        150.280488
                      -12.810858        81.6982038        -28.352445        150.332075      -0.714821489          124.6567

        637500000      -1.03504259       -134.295421       -11.1893602       -94.7471548       -12.5578563        79.8915604
                     -11.2097909       -94.8047635       -1.47847446        124.769323       -27.7390813        149.559838
                     -12.5556773        79.8069936       -27.7151236         149.45491      -0.722419995         123.55318

        650000000      -1.08739627       -136.719418       -10.9326705       -96.8418346       -12.2822914        78.1624616
                     -10.9311514        -96.897548       -1.46650708        123.262622        -27.147979        148.735695
                     -12.2761305        77.9789671       -27.1220691         148.69707      -0.730963716        122.469679

        662500000      -1.13826687       -139.210757       -10.6919605       -98.9834998       -12.0223978        76.1943169
                     -10.6804112       -98.9411395       -1.46527657          121.7009       -26.5838173        147.749614
                     -12.0282017        76.1469226       -26.5915242        147.692719      -0.767335186        121.263143

        675000000      -1.20690887       -141.673512       -10.4322967        -101.04717         -11.79637        74.2445363
                     -10.4238002       -101.116463       -1.45537015        120.133597       -26.0486166         146.71169
                     -11.7830767        74.2888961       -26.0537903        146.709511      -0.800646505         120.03289

        687500000       -1.2700336       -144.076957       -10.1776538       -103.098553       -11.5405322        72.5680759
                     -10.1823707       -103.136623       -1.45451511         118.64168       -25.5156083          145.7702
                     -11.5443916        72.4840422       -25.5166281        145.766278      -0.816611328        119.030304

        700000000      -1.33442997       -146.492861       -9.94122169       -105.125209       -11.3041933        70.7567947
                     -9.94117668       -105.076877       -1.46580521        117.181244       -25.0111212        144.752179
                     -11.3065261        70.7263786       -25.0053967        144.724006      -0.840360873        117.955994

        712500000      -1.40609081       -148.815218        -9.7015029       -107.110574       -11.0928079        68.9204268
                      -9.7074033       -107.173055       -1.46069218         115.76268       -24.5083638        143.677287
                     -11.0836029        68.9941283       -24.4979724        143.716225      -0.877262515        116.866132

        725000000      -1.46712809       -151.215023       -9.46851247       -109.129773       -10.8660768        67.2530129
                     -9.47461794       -109.229457       -1.46733573        114.395276       -24.0264392        142.543416
                     -10.8719213        67.1485196       -24.0229315         142.50457       -0.90380354        115.779994

        737500000      -1.53999181       -153.575561       -9.25843585       -111.203682       -10.6477816        65.4996999
                      -9.2565884       -111.223249       -1.46699098        112.933938       -23.5603378        141.437283
                     -10.6544018        65.3492178       -23.5577457        141.269693      -0.931863043        114.754126

        750000000      -1.62300977        -155.90273       -9.05885714       -113.176521       -10.4575944        63.5941614
                     -9.04718843       -113.251314       -1.48744318        111.550436       -23.0983019        140.182287
                     -10.4340732        63.6785667       -23.0958194        140.206646      -0.960579276        113.676253

        762500000       -1.6961795       -158.222592       -8.86164328       -115.190485       -10.2432044        61.9379995
                     -8.83895812       -115.320579       -1.49606465        110.086454        -22.664022        138.909392
                     -10.2411777        61.8180232        -22.669128         138.92584      -0.984748627        112.511203

        775000000      -1.78146103       -160.397257       -8.66937917       -117.232499       -10.0546217        60.2041972
                     -8.66236063       -117.160386       -1.50762598        108.602413       -22.2329437        137.700181
                     -10.0397714        60.2104243       -22.2344114        137.645545       -1.01068426        111.502684

        787500000      -1.87644732       -162.716117       -8.46453608       -119.225424       -9.86130842        58.4647056
                     -8.48861221       -119.174352       -1.52154257        107.196002       -21.8450228        136.346681
                     -9.86582514         58.474494       -21.8276433        136.422905       -1.04429649        110.370399

        800000000      -1.94775116       -164.964506       -8.27923886         -121.1087       -9.66642337        56.7596756
                     -8.28837232       -121.230764       -1.53370414        105.820724        -21.423645        135.036941
                      -9.6764103        56.6525998       -21.4449753        135.048569       -1.07971544        109.284661

        812500000      -2.02414263        -167.22233       -8.09677491       -123.165749       -9.48940885        54.9223377
                     -8.10702454       -123.213175       -1.54700523        104.359207       -21.0375043        133.645654
                     -9.47997512        54.9253902       -21.0306406        133.710354       -1.10896402        108.157213

        825000000      -2.10654643       -169.353836       -7.94474179       -124.933045       -9.31130583        53.3362385
                     -7.93707629        -125.04085       -1.59253392        103.093808       -20.6697219        132.399238
                      -9.3066328        53.2694037        -20.659702         132.42282       -1.14621234        107.068481

        837500000      -2.18322848       -171.580265       -7.76562523        -126.85592       -9.13173212        51.5653447
                     -7.75721722       -126.942686       -1.61086087        101.803205        -20.293927        131.069832
                     -9.13392842        51.5053889       -20.2923309        131.141729        -1.1819467        105.985865

        850000000      -2.28284404       -173.704185       -7.61573928       -128.711203       -8.98250549        49.9322494
                     -7.61958711       -128.853673       -1.65268514        100.394893       -19.9650379          129.7864
                     -8.97196257        49.8355519       -19.9615779        129.805245       -1.23493564        104.940141

        862500000      -2.37416666        -175.86352        -7.4666436       -130.738492       -8.80957934        48.2438949
                     -7.45935656       -130.747264       -1.67058164        98.9593284       -19.6031666         128.46193
                     -8.80416974        48.1452403       -19.5985865        128.432012       -1.25490848        103.903423

        875000000      -2.46373096       -177.994734       -7.32160209       -132.548933       -8.64542637        46.5651024
                     -7.30643486       -132.598883       -1.71240512        97.7037916       -19.2571151        127.119518
                     -8.65301868        46.4594061       -19.2796541        127.109007        -1.2964837        102.826826

        887500000      -2.56581275        179.868587       -7.15951336       -134.412154        -8.5064976         44.796394
                     -7.16841768       -134.406234       -1.73515861        96.4120906       -18.9616227         125.85858
                     -8.48632896        44.8064124       -18.9261359        125.759681       -1.34277929        101.751702

        900000000      -2.66297217        177.723852       -7.03710325       -136.178937       -8.34532701        43.2076874
                     -7.03418984       -136.289233       -1.78155855        95.1708331       -18.6200671         124.47847
                     -8.33787648        43.1548736       -18.6156565        124.603449       -1.36659682        100.791531

        912500000      -2.76193268        175.738528       -6.89386307       -138.086781       -8.19435669        41.5508851
                     -6.89271499       -138.043374       -1.80951226        93.8346191       -18.2954589        123.266822
                     -8.18579347        41.5134428       -18.2962059        123.086986       -1.40495759        99.6821959

        925000000       -2.8699744        173.593218       -6.76347637       -139.916406       -8.04170854        39.9168743
                     -6.75611705       -139.941343       -1.84177801        92.5005065       -17.9740117         121.81104
                     -8.04368603        39.8347108       -17.9885788        121.829698       -1.43506137        98.7046584

        937500000      -2.97167632        171.523996       -6.62425601       -141.585429       -7.89876062        38.1947744
                     -6.62515466       -141.705249       -1.87344195        91.3804091       -17.6765416         120.51705
                     -7.89234984         38.154112       -17.6724175        120.583187       -1.48654976        97.6136807

        950000000      -3.10033498        169.560544       -6.52837511       -143.358262       -7.76372176        36.6046093
                      -6.5165798       -143.403141       -1.95250921        90.1570282       -17.3845876        119.287556
                     -7.78023097        36.5552112       -17.4059942        119.250788       -1.53473738        96.5815899

        962500000      -3.20921304        167.544429       -6.37350431       -145.078576       -7.63307313         35.003283
                     -6.38670076       -145.192325       -1.96908379        88.9775024       -17.1044096        117.977503
                     -7.63067987        34.8315653       -17.0976927        117.869868        -1.5804143        95.5632961

        975000000      -3.32046551         165.52988       -6.26366224       -146.810922       -7.50808388        33.3760566
                     -6.26489046       -146.962717       -2.01912988        87.8236635       -16.8279854        116.641444
                     -7.48658544        33.2063249       -16.7999881          116.5672       -1.63328077        94.5477638

        987500000      -3.43371311        163.602754       -6.14577971       -148.546247       -7.37098791        31.7445163
                     -6.14318493       -148.673316       -2.06321131        86.6906576       -16.5554241        115.231879
                     -7.36930038        31.6139147       -16.5379658        115.222509       -1.68491209        93.4079182

           1e+009      -3.55397559        161.600418       -6.02728014       -150.374926       -7.24282158        30.1004848
                     -6.01350249       -150.356264       -2.09813185        85.4904226       -16.2586219        113.900907
                     -7.22479803        29.9745839       -16.2494312        113.904693       -1.72192063        92.3998386

      1.0125e+009      -3.67249346        159.752782       -5.92925004       -151.886996       -7.12824798         28.508209
                     -5.91771065       -152.163603       -2.16673025        84.3922942       -16.0054287        112.509787
                     -7.10926824        28.3839614       -15.9860452        112.654511       -1.78467896         91.309073

       1.025e+009      -3.81013944        157.806672       -5.82140313       -153.847233       -6.98296927        26.9162951
                     -5.80247744       -153.865568       -2.19986806        83.1131109       -15.7098376        111.160089
                     -6.98594684        26.7692349       -15.7331973        111.098418       -1.81221022         90.279864

      1.0375e+009      -3.94682989        155.913199       -5.72444385       -155.547739       -6.86583666        25.2807151
                     -5.70782073       -155.580564       -2.26189687        81.9559975       -15.4586877        109.790366
                     -6.86226021        25.1442547       -15.4718677        109.776609       -1.86937817        89.2243163

        1.05e+009      -4.09155305        153.959132       -5.62044956       -157.255762       -6.75534097        23.6967302
                     -5.60839853       -157.276722       -2.32156725        80.8836039        -15.196417        108.523909
                     -6.76074427        23.5349819       -15.2092235        108.402672        -1.9108249        88.1633187

      1.0625e+009      -4.22536835        152.077531       -5.52836218       -158.893157       -6.64845543        22.0389448
                     -5.50265946       -159.061655        -2.3844892         79.749051       -14.9581988        107.042692
                     -6.64380315        21.9327941       -14.9635347        107.108825       -1.98469521         87.070268

       1.075e+009         -4.39105        150.322189       -5.42572093       -160.557882       -6.53712495        20.4864036
                     -5.43182415       -160.723729       -2.44200399        78.6176681       -14.7070417        105.695789
                     -6.54558156        20.4298172       -14.7162711        105.817569       -2.03282912        86.0212011

      1.0875e+009      -4.51755276        148.432168       -5.32687435       -162.261803       -6.42821833        18.8631481
                     -5.32930809       -162.409507       -2.50615972        77.5344128        -14.492547        104.325281
                     -6.42644953        18.6864104       -14.4730662        104.300054       -2.09217138        84.8871947

         1.1e+009      -4.66052255        146.594905       -5.24037248       -163.905161       -6.31828158        17.3069076
                     -5.23878793       -164.035634       -2.57360498        76.4455659       -14.2432848        103.036724
                     -6.30511789        17.0318831       -14.2201679        102.958284       -2.13951945        83.8368487

      1.1125e+009      -4.82337254        144.870751       -5.16174521        -165.49246       -6.22351603        15.6260643
                     -5.16068579       -165.717362       -2.64517285        75.3599455       -14.0230343        101.561121
                     -6.21574592        15.5589215       -14.0250392        101.740794       -2.21072228        82.7455059

       1.125e+009      -4.98485938        143.092542       -5.08169512       -167.245377       -6.11860593        14.0951592
                     -5.08417574       -167.343608       -2.71738348        74.1697967       -13.7913393         100.25656
                     -6.11480163        13.9689885       -13.7848768        100.229436       -2.26286287        81.6012498

      1.1375e+009      -5.14376512         141.28378       -5.01742074       -169.010953       -6.01807164        12.5065947
                     -5.00980734       -168.939829       -2.79372084        73.0483387       -13.5741024        99.0439721
                     -6.02499102        12.3696109       -13.5842842        98.8291031       -2.33647382        80.5576671

        1.15e+009      -5.30390586        139.640383       -4.93505789       -170.499366       -5.92367472        10.9546301
                     -4.93421188       -170.439086       -2.86767835        72.0322205       -13.3595339        97.6662175
