!Murata Part Number: GJM0225C1C180JB01
!These Parameters are Measured in Series Mode Connection
!       o--ll--o
!Port1            Port2
!       o------o
!Operation Temp=25[C], DC Bias Voltage=0[V]
!Freq. Start=100[MHz] Stop=8500[MHz] 401[Steps]
# Hz S RI R 50
!Freq.(Hz) S11(Real) S11(Imag) S21(Real) S21(Imag) S12(Real) S12(Imag) S22(Real) S22(Imag)
100000000 0.4382399 -0.4956610 0.5617601 0.4956610 0.5617601 0.4956610 0.4382399 -0.4956610
121000000 0.3474814 -0.4755525 0.6525186 0.4755525 0.6525186 0.4755525 0.3474814 -0.4755525
142000000 0.2787060 -0.4476366 0.7212940 0.4476366 0.7212940 0.4476366 0.2787060 -0.4476366
163000000 0.2266137 -0.4178061 0.7733863 0.4178061 0.7733863 0.4178061 0.2266137 -0.4178061
184000000 0.1868200 -0.3888234 0.8131800 0.3888234 0.8131800 0.3888234 0.1868200 -0.3888234
205000000 0.1560437 -0.3618435 0.8439563 0.3618435 0.8439563 0.3618435 0.1560437 -0.3618435
226000000 0.1319152 -0.3372350 0.8680848 0.3372350 0.8680848 0.3372350 0.1319152 -0.3372350
247000000 0.1127397 -0.3149998 0.8872603 0.3149998 0.8872603 0.3149998 0.1127397 -0.3149998
268000000 0.0973013 -0.2949813 0.9026987 0.2949813 0.9026987 0.2949813 0.0973013 -0.2949813
289000000 0.0847199 -0.2769654 0.9152801 0.2769654 0.9152801 0.2769654 0.0847199 -0.2769654
310000000 0.0743512 -0.2607290 0.9256488 0.2607290 0.9256488 0.2607290 0.0743512 -0.2607290
331000000 0.0657178 -0.2460610 0.9342822 0.2460610 0.9342822 0.2460610 0.0657178 -0.2460610
352000000 0.0584611 -0.2327706 0.9415389 0.2327706 0.9415389 0.2327706 0.0584611 -0.2327706
373000000 0.0523089 -0.2206899 0.9476911 0.2206899 0.9476911 0.2206899 0.0523089 -0.2206899
394000000 0.0470517 -0.2096722 0.9529483 0.2096722 0.9529483 0.2096722 0.0470517 -0.2096722
415000000 0.0425267 -0.1995911 0.9574733 0.1995911 0.9574733 0.1995911 0.0425267 -0.1995911
436000000 0.0386059 -0.1903370 0.9613941 0.1903370 0.9613941 0.1903370 0.0386059 -0.1903370
457000000 0.0351878 -0.1818157 0.9648122 0.1818157 0.9648122 0.1818157 0.0351878 -0.1818157
478000000 0.0321911 -0.1739456 0.9678089 0.1739456 0.9678089 0.1739456 0.0321911 -0.1739456
499000000 0.0295502 -0.1666562 0.9704498 0.1666562 0.9704498 0.1666562 0.0295502 -0.1666562
520000000 0.0272114 -0.1598861 0.9727886 0.1598861 0.9727886 0.1598861 0.0272114 -0.1598861
541000000 0.0251310 -0.1535821 0.9748690 0.1535821 0.9748690 0.1535821 0.0251310 -0.1535821
562000000 0.0232727 -0.1476977 0.9767273 0.1476977 0.9767273 0.1476977 0.0232727 -0.1476977
583000000 0.0216063 -0.1421920 0.9783937 0.1421920 0.9783937 0.1421920 0.0216063 -0.1421920
604000000 0.0201066 -0.1370294 0.9798934 0.1370294 0.9798934 0.1370294 0.0201066 -0.1370294
625000000 0.0187523 -0.1321781 0.9812477 0.1321781 0.9812477 0.1321781 0.0187523 -0.1321781
646000000 0.0175255 -0.1276104 0.9824745 0.1276104 0.9824745 0.1276104 0.0175255 -0.1276104
667000000 0.0164108 -0.1233015 0.9835892 0.1233015 0.9835892 0.1233015 0.0164108 -0.1233015
688000000 0.0153952 -0.1192293 0.9846048 0.1192293 0.9846048 0.1192293 0.0153952 -0.1192293
709000000 0.0144675 -0.1153743 0.9855325 0.1153743 0.9855325 0.1153743 0.0144675 -0.1153743
730000000 0.0136178 -0.1117188 0.9863822 0.1117188 0.9863822 0.1117188 0.0136178 -0.1117188
751000000 0.0128379 -0.1082471 0.9871621 0.1082471 0.9871621 0.1082471 0.0128379 -0.1082471
772000000 0.0121205 -0.1049452 0.9878795 0.1049452 0.9878795 0.1049452 0.0121205 -0.1049452
793000000 0.0114592 -0.1018001 0.9885408 0.1018001 0.9885408 0.1018001 0.0114592 -0.1018001
814000000 0.0108483 -0.0988004 0.9891517 0.0988004 0.9891517 0.0988004 0.0108483 -0.0988004
835000000 0.0102831 -0.0959356 0.9897169 0.0959356 0.9897169 0.0959356 0.0102831 -0.0959356
856000000 0.0097591 -0.0931963 0.9902409 0.0931963 0.9902409 0.0931963 0.0097591 -0.0931963
877000000 0.0092725 -0.0905738 0.9907275 0.0905738 0.9907275 0.0905738 0.0092725 -0.0905738
898000000 0.0088201 -0.0880603 0.9911799 0.0880603 0.9911799 0.0880603 0.0088201 -0.0880603
919000000 0.0083987 -0.0856486 0.9916013 0.0856486 0.9916013 0.0856486 0.0083987 -0.0856486
940000000 0.0080056 -0.0833321 0.9919944 0.0833321 0.9919944 0.0833321 0.0080056 -0.0833321
961000000 0.0076385 -0.0811048 0.9923615 0.0811048 0.9923615 0.0811048 0.0076385 -0.0811048
982000000 0.0072952 -0.0789612 0.9927048 0.0789612 0.9927048 0.0789612 0.0072952 -0.0789612
1003000000 0.0069738 -0.0768962 0.9930262 0.0768962 0.9930262 0.0768962 0.0069738 -0.0768962
1024000000 0.0066725 -0.0749051 0.9933275 0.0749051 0.9933275 0.0749051 0.0066725 -0.0749051
1045000000 0.0063898 -0.0729837 0.9936102 0.0729837 0.9936102 0.0729837 0.0063898 -0.0729837
1066000000 0.0061242 -0.0711278 0.9938758 0.0711278 0.9938758 0.0711278 0.0061242 -0.0711278
1087000000 0.0058745 -0.0693339 0.9941255 0.0693339 0.9941255 0.0693339 0.0058745 -0.0693339
1108000000 0.0056395 -0.0675985 0.9943605 0.0675985 0.9943605 0.0675985 0.0056395 -0.0675985
1129000000 0.0054181 -0.0659184 0.9945819 0.0659184 0.9945819 0.0659184 0.0054181 -0.0659184
1150000000 0.0052094 -0.0642907 0.9947906 0.0642907 0.9947906 0.0642907 0.0052094 -0.0642907
1171000000 0.0050125 -0.0627126 0.9949875 0.0627126 0.9949875 0.0627126 0.0050125 -0.0627126
1192000000 0.0048265 -0.0611815 0.9951735 0.0611815 0.9951735 0.0611815 0.0048265 -0.0611815
1213000000 0.0046508 -0.0596952 0.9953492 0.0596952 0.9953492 0.0596952 0.0046508 -0.0596952
1234000000 0.0044847 -0.0582513 0.9955153 0.0582513 0.9955153 0.0582513 0.0044847 -0.0582513
1255000000 0.0043275 -0.0568477 0.9956725 0.0568477 0.9956725 0.0568477 0.0043275 -0.0568477
1276000000 0.0041787 -0.0554826 0.9958213 0.0554826 0.9958213 0.0554826 0.0041787 -0.0554826
1297000000 0.0040377 -0.0541541 0.9959623 0.0541541 0.9959623 0.0541541 0.0040377 -0.0541541
1318000000 0.0039041 -0.0528604 0.9960959 0.0528604 0.9960959 0.0528604 0.0039041 -0.0528604
1339000000 0.0037775 -0.0516000 0.9962225 0.0516000 0.9962225 0.0516000 0.0037775 -0.0516000
1360000000 0.0036573 -0.0503714 0.9963427 0.0503714 0.9963427 0.0503714 0.0036573 -0.0503714
1381000000 0.0035433 -0.0491731 0.9964567 0.0491731 0.9964567 0.0491731 0.0035433 -0.0491731
1402000000 0.0034350 -0.0480038 0.9965650 0.0480038 0.9965650 0.0480038 0.0034350 -0.0480038
1423000000 0.0033322 -0.0468623 0.9966678 0.0468623 0.9966678 0.0468623 0.0033322 -0.0468623
1444000000 0.0032346 -0.0457473 0.9967654 0.0457473 0.9967654 0.0457473 0.0032346 -0.0457473
1465000000 0.0031417 -0.0446578 0.9968583 0.0446578 0.9968583 0.0446578 0.0031417 -0.0446578
1486000000 0.0030535 -0.0435926 0.9969465 0.0435926 0.9969465 0.0435926 0.0030535 -0.0435926
1507000000 0.0029697 -0.0425508 0.9970303 0.0425508 0.9970303 0.0425508 0.0029697 -0.0425508
1528000000 0.0028899 -0.0415314 0.9971101 0.0415314 0.9971101 0.0415314 0.0028899 -0.0415314
1549000000 0.0028141 -0.0405335 0.9971859 0.0405335 0.9971859 0.0405335 0.0028141 -0.0405335
1570000000 0.0027419 -0.0395564 0.9972581 0.0395564 0.9972581 0.0395564 0.0027419 -0.0395564
1591000000 0.0026733 -0.0385991 0.9973267 0.0385991 0.9973267 0.0385991 0.0026733 -0.0385991
1612000000 0.0026080 -0.0376609 0.9973920 0.0376609 0.9973920 0.0376609 0.0026080 -0.0376609
1633000000 0.0025459 -0.0367411 0.9974541 0.0367411 0.9974541 0.0367411 0.0025459 -0.0367411
1654000000 0.0024868 -0.0358390 0.9975132 0.0358390 0.9975132 0.0358390 0.0024868 -0.0358390
1675000000 0.0024306 -0.0349539 0.9975694 0.0349539 0.9975694 0.0349539 0.0024306 -0.0349539
1696000000 0.0023772 -0.0340852 0.9976228 0.0340852 0.9976228 0.0340852 0.0023772 -0.0340852
1717000000 0.0023263 -0.0332324 0.9976737 0.0332324 0.9976737 0.0332324 0.0023263 -0.0332324
1738000000 0.0022780 -0.0323948 0.9977220 0.0323948 0.9977220 0.0323948 0.0022780 -0.0323948
1759000000 0.0022320 -0.0315720 0.9977680 0.0315720 0.9977680 0.0315720 0.0022320 -0.0315720
1780000000 0.0021883 -0.0307634 0.9978117 0.0307634 0.9978117 0.0307634 0.0021883 -0.0307634
1801000000 0.0021468 -0.0299684 0.9978532 0.0299684 0.9978532 0.0299684 0.0021468 -0.0299684
1822000000 0.0021074 -0.0291868 0.9978926 0.0291868 0.9978926 0.0291868 0.0021074 -0.0291868
1843000000 0.0020700 -0.0284179 0.9979300 0.0284179 0.9979300 0.0284179 0.0020700 -0.0284179
1864000000 0.0020345 -0.0276614 0.9979655 0.0276614 0.9979655 0.0276614 0.0020345 -0.0276614
1885000000 0.0020008 -0.0269169 0.9979992 0.0269169 0.9979992 0.0269169 0.0020008 -0.0269169
1906000000 0.0019689 -0.0261839 0.9980311 0.0261839 0.9980311 0.0261839 0.0019689 -0.0261839
1927000000 0.0019386 -0.0254622 0.9980614 0.0254622 0.9980614 0.0254622 0.0019386 -0.0254622
1948000000 0.0019100 -0.0247513 0.9980900 0.0247513 0.9980900 0.0247513 0.0019100 -0.0247513
1969000000 0.0018829 -0.0240510 0.9981171 0.0240510 0.9981171 0.0240510 0.0018829 -0.0240510
1990000000 0.0018573 -0.0233608 0.9981427 0.0233608 0.9981427 0.0233608 0.0018573 -0.0233608
2011000000 0.0018332 -0.0226804 0.9981668 0.0226804 0.9981668 0.0226804 0.0018332 -0.0226804
2032000000 0.0018104 -0.0220097 0.9981896 0.0220097 0.9981896 0.0220097 0.0018104 -0.0220097
2053000000 0.0017889 -0.0213482 0.9982111 0.0213482 0.9982111 0.0213482 0.0017889 -0.0213482
2074000000 0.0017687 -0.0206957 0.9982313 0.0206957 0.9982313 0.0206957 0.0017687 -0.0206957
2095000000 0.0017498 -0.0200519 0.9982502 0.0200519 0.9982502 0.0200519 0.0017498 -0.0200519
2116000000 0.0017320 -0.0194166 0.9982680 0.0194166 0.9982680 0.0194166 0.0017320 -0.0194166
2137000000 0.0017154 -0.0187896 0.9982846 0.0187896 0.9982846 0.0187896 0.0017154 -0.0187896
2158000000 0.0016998 -0.0181705 0.9983002 0.0181705 0.9983002 0.0181705 0.0016998 -0.0181705
2179000000 0.0016854 -0.0175592 0.9983146 0.0175592 0.9983146 0.0175592 0.0016854 -0.0175592
2200000000 0.0016719 -0.0169554 0.9983281 0.0169554 0.9983281 0.0169554 0.0016719 -0.0169554
2221000000 0.0016595 -0.0163590 0.9983405 0.0163590 0.9983405 0.0163590 0.0016595 -0.0163590
2242000000 0.0016480 -0.0157697 0.9983520 0.0157697 0.9983520 0.0157697 0.0016480 -0.0157697
2263000000 0.0016374 -0.0151873 0.9983626 0.0151873 0.9983626 0.0151873 0.0016374 -0.0151873
2284000000 0.0016277 -0.0146117 0.9983723 0.0146117 0.9983723 0.0146117 0.0016277 -0.0146117
2305000000 0.0016189 -0.0140426 0.9983811 0.0140426 0.9983811 0.0140426 0.0016189 -0.0140426
2326000000 0.0016109 -0.0134799 0.9983891 0.0134799 0.9983891 0.0134799 0.0016109 -0.0134799
2347000000 0.0016038 -0.0129234 0.9983962 0.0129234 0.9983962 0.0129234 0.0016038 -0.0129234
2368000000 0.0015974 -0.0123730 0.9984026 0.0123730 0.9984026 0.0123730 0.0015974 -0.0123730
2389000000 0.0015917 -0.0118285 0.9984083 0.0118285 0.9984083 0.0118285 0.0015917 -0.0118285
2410000000 0.0015868 -0.0112897 0.9984132 0.0112897 0.9984132 0.0112897 0.0015868 -0.0112897
2431000000 0.0015827 -0.0107565 0.9984173 0.0107565 0.9984173 0.0107565 0.0015827 -0.0107565
2452000000 0.0015792 -0.0102288 0.9984208 0.0102288 0.9984208 0.0102288 0.0015792 -0.0102288
2473000000 0.0015764 -0.0097064 0.9984236 0.0097064 0.9984236 0.0097064 0.0015764 -0.0097064
2494000000 0.0015742 -0.0091892 0.9984258 0.0091892 0.9984258 0.0091892 0.0015742 -0.0091892
2515000000 0.0015726 -0.0086770 0.9984274 0.0086770 0.9984274 0.0086770 0.0015726 -0.0086770
2536000000 0.0015717 -0.0081698 0.9984283 0.0081698 0.9984283 0.0081698 0.0015717 -0.0081698
2557000000 0.0015714 -0.0076674 0.9984286 0.0076674 0.9984286 0.0076674 0.0015714 -0.0076674
2578000000 0.0015716 -0.0071696 0.9984284 0.0071696 0.9984284 0.0071696 0.0015716 -0.0071696
2599000000 0.0015724 -0.0066765 0.9984276 0.0066765 0.9984276 0.0066765 0.0015724 -0.0066765
2620000000 0.0015738 -0.0061878 0.9984262 0.0061878 0.9984262 0.0061878 0.0015738 -0.0061878
2641000000 0.0015757 -0.0057035 0.9984243 0.0057035 0.9984243 0.0057035 0.0015757 -0.0057035
2662000000 0.0015781 -0.0052234 0.9984219 0.0052234 0.9984219 0.0052234 0.0015781 -0.0052234
2683000000 0.0015810 -0.0047476 0.9984190 0.0047476 0.9984190 0.0047476 0.0015810 -0.0047476
2704000000 0.0015844 -0.0042757 0.9984156 0.0042757 0.9984156 0.0042757 0.0015844 -0.0042757
2725000000 0.0015883 -0.0038079 0.9984117 0.0038079 0.9984117 0.0038079 0.0015883 -0.0038079
2746000000 0.0015926 -0.0033440 0.9984074 0.0033440 0.9984074 0.0033440 0.0015926 -0.0033440
2767000000 0.0015974 -0.0028838 0.9984026 0.0028838 0.9984026 0.0028838 0.0015974 -0.0028838
2788000000 0.0016027 -0.0024274 0.9983973 0.0024274 0.9983973 0.0024274 0.0016027 -0.0024274
2809000000 0.0016083 -0.0019746 0.9983917 0.0019746 0.9983917 0.0019746 0.0016083 -0.0019746
2830000000 0.0016144 -0.0015253 0.9983856 0.0015253 0.9983856 0.0015253 0.0016144 -0.0015253
2851000000 0.0016209 -0.0010795 0.9983791 0.0010795 0.9983791 0.0010795 0.0016209 -0.0010795
2872000000 0.0016278 -0.0006371 0.9983722 0.0006371 0.9983722 0.0006371 0.0016278 -0.0006371
2893000000 0.0016351 -0.0001980 0.9983649 0.0001980 0.9983649 0.0001980 0.0016351 -0.0001980
2914000000 0.0016428 0.0002378 0.9983572 -0.0002378 0.9983572 -0.0002378 0.0016428 0.0002378
2935000000 0.0016509 0.0006704 0.9983491 -0.0006704 0.9983491 -0.0006704 0.0016509 0.0006704
2956000000 0.0016593 0.0011000 0.9983407 -0.0011000 0.9983407 -0.0011000 0.0016593 0.0011000
2977000000 0.0016681 0.0015264 0.9983319 -0.0015264 0.9983319 -0.0015264 0.0016681 0.0015264
2998000000 0.0016772 0.0019499 0.9983228 -0.0019499 0.9983228 -0.0019499 0.0016772 0.0019499
3019000000 0.0016866 0.0023705 0.9983134 -0.0023705 0.9983134 -0.0023705 0.0016866 0.0023705
3040000000 0.0016964 0.0027882 0.9983036 -0.0027882 0.9983036 -0.0027882 0.0016964 0.0027882
3061000000 0.0017065 0.0032031 0.9982935 -0.0032031 0.9982935 -0.0032031 0.0017065 0.0032031
3082000000 0.0017170 0.0036153 0.9982830 -0.0036153 0.9982830 -0.0036153 0.0017170 0.0036153
3103000000 0.0017277 0.0040248 0.9982723 -0.0040248 0.9982723 -0.0040248 0.0017277 0.0040248
3124000000 0.0017388 0.0044317 0.9982612 -0.0044317 0.9982612 -0.0044317 0.0017388 0.0044317
3145000000 0.0017502 0.0048359 0.9982498 -0.0048359 0.9982498 -0.0048359 0.0017502 0.0048359
3166000000 0.0017618 0.0052377 0.9982382 -0.0052377 0.9982382 -0.0052377 0.0017618 0.0052377
3187000000 0.0017737 0.0056369 0.9982263 -0.0056369 0.9982263 -0.0056369 0.0017737 0.0056369
3208000000 0.0017860 0.0060338 0.9982140 -0.0060338 0.9982140 -0.0060338 0.0017860 0.0060338
3229000000 0.0017985 0.0064282 0.9982015 -0.0064282 0.9982015 -0.0064282 0.0017985 0.0064282
3250000000 0.0018112 0.0068204 0.9981888 -0.0068204 0.9981888 -0.0068204 0.0018112 0.0068204
3271000000 0.0018243 0.0072102 0.9981757 -0.0072102 0.9981757 -0.0072102 0.0018243 0.0072102
3292000000 0.0018376 0.0075978 0.9981624 -0.0075978 0.9981624 -0.0075978 0.0018376 0.0075978
3313000000 0.0018511 0.0079832 0.9981489 -0.0079832 0.9981489 -0.0079832 0.0018511 0.0079832
3334000000 0.0018650 0.0083664 0.9981350 -0.0083664 0.9981350 -0.0083664 0.0018650 0.0083664
3355000000 0.0018790 0.0087475 0.9981210 -0.0087475 0.9981210 -0.0087475 0.0018790 0.0087475
3376000000 0.0018933 0.0091265 0.9981067 -0.0091265 0.9981067 -0.0091265 0.0018933 0.0091265
3397000000 0.0019079 0.0095035 0.9980921 -0.0095035 0.9980921 -0.0095035 0.0019079 0.0095035
3418000000 0.0019227 0.0098785 0.9980773 -0.0098785 0.9980773 -0.0098785 0.0019227 0.0098785
3439000000 0.0019377 0.0102515 0.9980623 -0.0102515 0.9980623 -0.0102515 0.0019377 0.0102515
3460000000 0.0019529 0.0106226 0.9980471 -0.0106226 0.9980471 -0.0106226 0.0019529 0.0106226
3481000000 0.0019684 0.0109919 0.9980316 -0.0109919 0.9980316 -0.0109919 0.0019684 0.0109919
3502000000 0.0019841 0.0113592 0.9980159 -0.0113592 0.9980159 -0.0113592 0.0019841 0.0113592
3523000000 0.0020000 0.0117248 0.9980000 -0.0117248 0.9980000 -0.0117248 0.0020000 0.0117248
3544000000 0.0020161 0.0120885 0.9979839 -0.0120885 0.9979839 -0.0120885 0.0020161 0.0120885
3565000000 0.0020324 0.0124505 0.9979676 -0.0124505 0.9979676 -0.0124505 0.0020324 0.0124505
3586000000 0.0020490 0.0128108 0.9979510 -0.0128108 0.9979510 -0.0128108 0.0020490 0.0128108
3607000000 0.0020657 0.0131694 0.9979343 -0.0131694 0.9979343 -0.0131694 0.0020657 0.0131694
3628000000 0.0020827 0.0135263 0.9979173 -0.0135263 0.9979173 -0.0135263 0.0020827 0.0135263
3649000000 0.0020999 0.0138816 0.9979001 -0.0138816 0.9979001 -0.0138816 0.0020999 0.0138816
3670000000 0.0021172 0.0142353 0.9978828 -0.0142353 0.9978828 -0.0142353 0.0021172 0.0142353
3691000000 0.0021348 0.0145875 0.9978652 -0.0145875 0.9978652 -0.0145875 0.0021348 0.0145875
3712000000 0.0021525 0.0149380 0.9978475 -0.0149380 0.9978475 -0.0149380 0.0021525 0.0149380
3733000000 0.0021704 0.0152871 0.9978296 -0.0152871 0.9978296 -0.0152871 0.0021704 0.0152871
3754000000 0.0021886 0.0156347 0.9978114 -0.0156347 0.9978114 -0.0156347 0.0021886 0.0156347
3775000000 0.0022069 0.0159808 0.9977931 -0.0159808 0.9977931 -0.0159808 0.0022069 0.0159808
3796000000 0.0022254 0.0163255 0.9977746 -0.0163255 0.9977746 -0.0163255 0.0022254 0.0163255
3817000000 0.0022440 0.0166688 0.9977560 -0.0166688 0.9977560 -0.0166688 0.0022440 0.0166688
3838000000 0.0022629 0.0170106 0.9977371 -0.0170106 0.9977371 -0.0170106 0.0022629 0.0170106
3859000000 0.0022819 0.0173512 0.9977181 -0.0173512 0.9977181 -0.0173512 0.0022819 0.0173512
3880000000 0.0023011 0.0176904 0.9976989 -0.0176904 0.9976989 -0.0176904 0.0023011 0.0176904
3901000000 0.0023205 0.0180282 0.9976795 -0.0180282 0.9976795 -0.0180282 0.0023205 0.0180282
3922000000 0.0023401 0.0183648 0.9976599 -0.0183648 0.9976599 -0.0183648 0.0023401 0.0183648
3943000000 0.0023598 0.0187001 0.9976402 -0.0187001 0.9976402 -0.0187001 0.0023598 0.0187001
3964000000 0.0023797 0.0190342 0.9976203 -0.0190342 0.9976203 -0.0190342 0.0023797 0.0190342
3985000000 0.0023998 0.0193670 0.9976002 -0.0193670 0.9976002 -0.0193670 0.0023998 0.0193670
4006000000 0.0024201 0.0196987 0.9975799 -0.0196987 0.9975799 -0.0196987 0.0024201 0.0196987
4027000000 0.0024405 0.0200291 0.9975595 -0.0200291 0.9975595 -0.0200291 0.0024405 0.0200291
4048000000 0.0024611 0.0203584 0.9975389 -0.0203584 0.9975389 -0.0203584 0.0024611 0.0203584
4069000000 0.0024818 0.0206866 0.9975182 -0.0206866 0.9975182 -0.0206866 0.0024818 0.0206866
4090000000 0.0025027 0.0210137 0.9974973 -0.0210137 0.9974973 -0.0210137 0.0025027 0.0210137
4111000000 0.0025238 0.0213396 0.9974762 -0.0213396 0.9974762 -0.0213396 0.0025238 0.0213396
4132000000 0.0025450 0.0216645 0.9974550 -0.0216645 0.9974550 -0.0216645 0.0025450 0.0216645
4153000000 0.0025664 0.0219883 0.9974336 -0.0219883 0.9974336 -0.0219883 0.0025664 0.0219883
4174000000 0.0025880 0.0223110 0.9974120 -0.0223110 0.9974120 -0.0223110 0.0025880 0.0223110
4195000000 0.0026097 0.0226327 0.9973903 -0.0226327 0.9973903 -0.0226327 0.0026097 0.0226327
4216000000 0.0026316 0.0229535 0.9973684 -0.0229535 0.9973684 -0.0229535 0.0026316 0.0229535
4237000000 0.0026536 0.0232732 0.9973464 -0.0232732 0.9973464 -0.0232732 0.0026536 0.0232732
4258000000 0.0026758 0.0235920 0.9973242 -0.0235920 0.9973242 -0.0235920 0.0026758 0.0235920
4279000000 0.0026982 0.0239098 0.9973018 -0.0239098 0.9973018 -0.0239098 0.0026982 0.0239098
4300000000 0.0027207 0.0242267 0.9972793 -0.0242267 0.9972793 -0.0242267 0.0027207 0.0242267
4321000000 0.0027433 0.0245426 0.9972567 -0.0245426 0.9972567 -0.0245426 0.0027433 0.0245426
4342000000 0.0027662 0.0248577 0.9972338 -0.0248577 0.9972338 -0.0248577 0.0027662 0.0248577
4363000000 0.0027891 0.0251719 0.9972109 -0.0251719 0.9972109 -0.0251719 0.0027891 0.0251719
4384000000 0.0028123 0.0254852 0.9971877 -0.0254852 0.9971877 -0.0254852 0.0028123 0.0254852
4405000000 0.0028356 0.0257976 0.9971644 -0.0257976 0.9971644 -0.0257976 0.0028356 0.0257976
4426000000 0.0028590 0.0261092 0.9971410 -0.0261092 0.9971410 -0.0261092 0.0028590 0.0261092
4447000000 0.0028826 0.0264200 0.9971174 -0.0264200 0.9971174 -0.0264200 0.0028826 0.0264200
4468000000 0.0029064 0.0267300 0.9970936 -0.0267300 0.9970936 -0.0267300 0.0029064 0.0267300
